(1690486562.176562) can0 1FBFDFFF#0000BFFDFFDF7FF7
(1690486562.176740) can0 1F9FDFFF#0001010101010101
(1690486562.176905) can0 1F9FDFFF#0101010101010101
(1690486562.177073) can0 1F9FDFFF#0101010101010101
(1690486562.177244) can0 1F9FDFFF#0101010101010101
(1690486562.177418) can0 1F9FDFFF#0101010101010101
(1690486562.177590) can0 1F9FDFFF#0101010101010101
(1690486562.177765) can0 1F9FDFFF#0101010101010101
(1690486562.177936) can0 1F9FDFFF#0101010101010101
(1690486562.178077) can0 1F7FDFFF#FFFF
(1690486562.178508) can0 1FBFBFFF#0000BFFDFFDF7FF7
(1690486562.178686) can0 1F9FBFFF#0001010101010101
(1690486562.178863) can0 1F9FBFFF#0101010101010101
(1690486562.179034) can0 1F9FBFFF#0101010101010101
(1690486562.179208) can0 1F9FBFFF#0101010101010101
(1690486562.179382) can0 1F9FBFFF#0101010101010101
(1690486562.179557) can0 1F9FBFFF#0101010101010101
(1690486562.179731) can0 1F9FBFFF#0101010101010101
(1690486562.179899) can0 1F9FBFFF#0101010101010101
(1690486562.180051) can0 1F7FBFFF#FFFB
(1690486562.180563) can0 1FBF9FFF#0000BFFDFFDF7FF7
(1690486562.180740) can0 1F9F9FFF#0001010101010101
(1690486562.180914) can0 1F9F9FFF#0101010101010101
(1690486562.181086) can0 1F9F9FFF#0101010101010101
(1690486562.181256) can0 1F9F9FFF#0101010101010101
(1690486562.181429) can0 1F9F9FFF#0101010101010101
(1690486562.181602) can0 1F9F9FFF#0101010101010101
(1690486562.181774) can0 1F9F9FFF#0101010101010101
(1690486562.181946) can0 1F9F9FFF#0101010101010101
(1690486562.197738) can0 1FBF9FFF#0000BFFDFFDF7FF7
(1690486562.197911) can0 1F9F9FFF#0001010101010101
(1690486562.198085) can0 1F9F9FFF#0101010101010101
(1690486562.198255) can0 1F9F9FFF#0101010101010101
(1690486562.198428) can0 1F9F9FFF#0101010101010101
(1690486562.198601) can0 1F9F9FFF#0101010101010101
(1690486562.198772) can0 1F9F9FFF#0101010101010101
(1690486562.198944) can0 1F9F9FFF#0101010101010101
(1690486562.199117) can0 1F9F9FFF#0101010101010101
(1690486562.214907) can0 1FBF9FFF#0000BFFDFFDF7FF7
(1690486562.215083) can0 1F9F9FFF#0001010101010101
(1690486562.215254) can0 1F9F9FFF#0101010101010101
(1690486562.215426) can0 1F9F9FFF#0101010101010101
(1690486562.215598) can0 1F9F9FFF#0101010101010101
(1690486562.215770) can0 1F9F9FFF#0101010101010101
(1690486562.215942) can0 1F9F9FFF#0101010101010101
(1690486562.216115) can0 1F9F9FFF#0101010101010101
(1690486562.216285) can0 1F9F9FFF#0101010101010101
(1690486562.232082) can0 1FBF9FFF#0000BFFDFFDF7FF7
(1690486562.232253) can0 1F9F9FFF#0001010101010101
(1690486562.232423) can0 1F9F9FFF#0101010101010101
(1690486562.232595) can0 1F9F9FFF#0101010101010101
(1690486562.232768) can0 1F9F9FFF#0101010101010101
(1690486562.232940) can0 1F9F9FFF#0101010101010101
(1690486562.233113) can0 1F9F9FFF#0101010101010101
(1690486562.233283) can0 1F9F9FFF#0101010101010101
(1690486562.233456) can0 1F9F9FFF#0101010101010101
(1690486562.249247) can0 1FBF9FFF#0000BFFDFFDF7FF7
(1690486562.249422) can0 1F9F9FFF#0001010101010101
(1690486562.249594) can0 1F9F9FFF#0101010101010101
(1690486562.249765) can0 1F9F9FFF#0101010101010101
(1690486562.249940) can0 1F9F9FFF#0101010101010101
(1690486562.250111) can0 1F9F9FFF#0101010101010101
(1690486562.250281) can0 1F9F9FFF#0101010101010101
(1690486562.250455) can0 1F9F9FFF#0101010101010101
(1690486562.250650) can0 1F9F9FFF#0101010101010101
(1690486562.266431) can0 1FBF9FFF#0000BFFDFFDF7FF7
(1690486562.266607) can0 1F9F9FFF#0001010101010101
(1690486562.266777) can0 1F9F9FFF#0101010101010101
(1690486562.266949) can0 1F9F9FFF#0101010101010101
(1690486562.267121) can0 1F9F9FFF#0101010101010101
(1690486562.267293) can0 1F9F9FFF#0101010101010101
(1690486562.267467) can0 1F9F9FFF#0101010101010101
(1690486562.267637) can0 1F9F9FFF#0101010101010101
(1690486562.267810) can0 1F9F9FFF#0101010101010101
(1690486562.283610) can0 1FBF9FFF#0000BFFDFFDF7FF7
(1690486562.283784) can0 1F9F9FFF#0001010101010101
(1690486562.283948) can0 1F9F9FFF#0101010101010101
(1690486562.284120) can0 1F9F9FFF#0101010101010101
(1690486562.284291) can0 1F9F9FFF#0101010101010101
(1690486562.284465) can0 1F9F9FFF#0101010101010101
(1690486562.284636) can0 1F9F9FFF#0101010101010101
(1690486562.284808) can0 1F9F9FFF#0101010101010101
(1690486562.284980) can0 1F9F9FFF#0101010101010101
(1690486562.300775) can0 1FBF9FFF#0000BFFDFFDF7FF7
(1690486562.300946) can0 1F9F9FFF#0001010101010101
(1690486562.301119) can0 1F9F9FFF#0101010101010101
(1690486562.301289) can0 1F9F9FFF#0101010101010101
(1690486562.301463) can0 1F9F9FFF#0101010101010101
(1690486562.301634) can0 1F9F9FFF#0101010101010101
(1690486562.301807) can0 1F9F9FFF#0101010101010101
(1690486562.301978) can0 1F9F9FFF#0101010101010101
(1690486562.302149) can0 1F9F9FFF#0101010101010101
(1690486562.317941) can0 1FBF9FFF#0000BFFDFFDF7FF7
(1690486562.318117) can0 1F9F9FFF#0001010101010101
(1690486562.318287) can0 1F9F9FFF#0101010101010101
(1690486562.318461) can0 1F9F9FFF#0101010101010101
(1690486562.318636) can0 1F9F9FFF#0101010101010101
(1690486562.318801) can0 1F9F9FFF#0101010101010101
(1690486562.318977) can0 1F9F9FFF#0101010101010101
(1690486562.319148) can0 1F9F9FFF#0101010101010101
(1690486562.319320) can0 1F9F9FFF#0101010101010101
(1690486562.335111) can0 1FBF9FFF#0000BFFDFFDF7FF7
(1690486562.335285) can0 1F9F9FFF#0001010101010101
(1690486562.335459) can0 1F9F9FFF#0101010101010101
(1690486562.335629) can0 1F9F9FFF#0101010101010101
(1690486562.335801) can0 1F9F9FFF#0101010101010101
(1690486562.335973) can0 1F9F9FFF#0101010101010101
(1690486562.336145) can0 1F9F9FFF#0101010101010101
(1690486562.336317) can0 1F9F9FFF#0101010101010101
(1690486562.336491) can0 1F9F9FFF#0101010101010101
(1690486562.352643) can0 1FBF7FFF#0000BFFDFFDF7FF7
(1690486562.352818) can0 1F9F7FFF#0001010101010101
(1690486562.352991) can0 1F9F7FFF#0101010101010101
(1690486562.353162) can0 1F9F7FFF#0101010101010101
(1690486562.353336) can0 1F9F7FFF#0101010101010101
(1690486562.353506) can0 1F9F7FFF#0101010101010101
(1690486562.353679) can0 1F9F7FFF#0101010101010101
(1690486562.353853) can0 1F9F7FFF#0101010101010101
(1690486562.354024) can0 1F9F7FFF#0101010101010101
(1690486562.369832) can0 1FBF7FFF#0000BFFDFFDF7FF7
(1690486562.370012) can0 1F9F7FFF#0001010101010101
(1690486562.370182) can0 1F9F7FFF#0101010101010101
(1690486562.370355) can0 1F9F7FFF#0101010101010101
(1690486562.370525) can0 1F9F7FFF#0101010101010101
(1690486562.370711) can0 1F9F7FFF#0101010101010101
(1690486562.370878) can0 1F9F7FFF#0101010101010101
(1690486562.371042) can0 1F9F7FFF#0101010101010101
(1690486562.371216) can0 1F9F7FFF#0101010101010101
(1690486562.387022) can0 1FBF7FFF#0000BFFDFFDF7FF7
(1690486562.387196) can0 1F9F7FFF#0001010101010101
(1690486562.387360) can0 1F9F7FFF#0101010101010101
(1690486562.387527) can0 1F9F7FFF#0101010101010101
(1690486562.387700) can0 1F9F7FFF#0101010101010101
(1690486562.387872) can0 1F9F7FFF#0101010101010101
(1690486562.388045) can0 1F9F7FFF#0101010101010101
(1690486562.388218) can0 1F9F7FFF#0101010101010101
(1690486562.388390) can0 1F9F7FFF#0101010101010101
(1690486562.404183) can0 1FBF7FFF#0000BFFDFFDF7FF7
(1690486562.404357) can0 1F9F7FFF#0001010101010101
(1690486562.404528) can0 1F9F7FFF#0101010101010101
(1690486562.404701) can0 1F9F7FFF#0101010101010101
(1690486562.404872) can0 1F9F7FFF#0101010101010101
(1690486562.405045) can0 1F9F7FFF#0101010101010101
(1690486562.405218) can0 1F9F7FFF#0101010101010101
(1690486562.405390) can0 1F9F7FFF#0101010101010101
(1690486562.405562) can0 1F9F7FFF#0101010101010101
(1690486562.421360) can0 1FBF7FFF#0000BFFDFFDF7FF7
(1690486562.421531) can0 1F9F7FFF#0001010101010101
(1690486562.421706) can0 1F9F7FFF#0101010101010101
(1690486562.421877) can0 1F9F7FFF#0101010101010101
(1690486562.422049) can0 1F9F7FFF#0101010101010101
(1690486562.422221) can0 1F9F7FFF#0101010101010101
(1690486562.422394) can0 1F9F7FFF#0101010101010101
(1690486562.422566) can0 1F9F7FFF#0101010101010101
(1690486562.422740) can0 1F9F7FFF#0101010101010101
(1690486562.438534) can0 1FBF7FFF#0000BFFDFFDF7FF7
(1690486562.438716) can0 1F9F7FFF#0001010101010101
(1690486562.438883) can0 1F9F7FFF#0101010101010101
(1690486562.439054) can0 1F9F7FFF#0101010101010101
(1690486562.439226) can0 1F9F7FFF#0101010101010101
(1690486562.439400) can0 1F9F7FFF#0101010101010101
(1690486562.439570) can0 1F9F7FFF#0101010101010101
(1690486562.439743) can0 1F9F7FFF#0101010101010101
(1690486562.439913) can0 1F9F7FFF#0101010101010101
(1690486562.455725) can0 1FBF7FFF#0000BFFDFFDF7FF7
(1690486562.455903) can0 1F9F7FFF#0001010101010101
(1690486562.456075) can0 1F9F7FFF#0101010101010101
(1690486562.456247) can0 1F9F7FFF#0101010101010101
(1690486562.456418) can0 1F9F7FFF#0101010101010101
(1690486562.456592) can0 1F9F7FFF#0101010101010101
(1690486562.456765) can0 1F9F7FFF#0101010101010101
(1690486562.456936) can0 1F9F7FFF#0101010101010101
(1690486562.457109) can0 1F9F7FFF#0101010101010101
(1690486562.472901) can0 1FBF7FFF#0000BFFDFFDF7FF7
(1690486562.473076) can0 1F9F7FFF#0001010101010101
(1690486562.473248) can0 1F9F7FFF#0101010101010101
(1690486562.473420) can0 1F9F7FFF#0101010101010101
(1690486562.473594) can0 1F9F7FFF#0101010101010101
(1690486562.473770) can0 1F9F7FFF#0101010101010101
(1690486562.473941) can0 1F9F7FFF#0101010101010101
(1690486562.474112) can0 1F9F7FFF#0101010101010101
(1690486562.474283) can0 1F9F7FFF#0101010101010101
(1690486562.490085) can0 1FBF7FFF#0000BFFDFFDF7FF7
(1690486562.490263) can0 1F9F7FFF#0001010101010101
(1690486562.490427) can0 1F9F7FFF#0101010101010101
(1690486562.490595) can0 1F9F7FFF#0101010101010101
(1690486562.490770) can0 1F9F7FFF#0101010101010101
(1690486562.490940) can0 1F9F7FFF#0101010101010101
(1690486562.491112) can0 1F9F7FFF#0101010101010101
(1690486562.491283) can0 1F9F7FFF#0101010101010101
(1690486562.491457) can0 1F9F7FFF#0101010101010101
(1690486562.507249) can0 1FBF7FFF#0000BFFDFFDF7FF7
(1690486562.507426) can0 1F9F7FFF#0001010101010101
(1690486562.507599) can0 1F9F7FFF#0101010101010101
(1690486562.507771) can0 1F9F7FFF#0101010101010101
(1690486562.507943) can0 1F9F7FFF#0101010101010101
(1690486562.508116) can0 1F9F7FFF#0101010101010101
(1690486562.508288) can0 1F9F7FFF#0101010101010101
(1690486562.508461) can0 1F9F7FFF#0101010101010101
(1690486562.508633) can0 1F9F7FFF#0101010101010101
(1690486562.566584) can0 1FBF5FFF#0000BFFDFFDF7FF7
(1690486562.566760) can0 1F9F5FFF#0001010101010101
(1690486562.566931) can0 1F9F5FFF#0101010101010101
(1690486562.567104) can0 1F9F5FFF#0101010101010101
(1690486562.567275) can0 1F9F5FFF#0101010101010101
(1690486562.567448) can0 1F9F5FFF#0101010101010101
(1690486562.567620) can0 1F9F5FFF#0101010101010101
(1690486562.567792) can0 1F9F5FFF#0101010101010101
(1690486562.567964) can0 1F9F5FFF#0101010101010101
(1690486562.583758) can0 1FBF5FFF#0000BFFDFFDF7FF7
(1690486562.583930) can0 1F9F5FFF#0001010101010101
(1690486562.584101) can0 1F9F5FFF#0101010101010101
(1690486562.584273) can0 1F9F5FFF#0101010101010101
(1690486562.584445) can0 1F9F5FFF#0101010101010101
(1690486562.584619) can0 1F9F5FFF#0101010101010101
(1690486562.584790) can0 1F9F5FFF#0101010101010101
(1690486562.584962) can0 1F9F5FFF#0101010101010101
(1690486562.585133) can0 1F9F5FFF#0101010101010101
(1690486562.600934) can0 1FBF5FFF#0000BFFDFFDF7FF7
(1690486562.601108) can0 1F9F5FFF#0001010101010101
(1690486562.601272) can0 1F9F5FFF#0101010101010101
(1690486562.601443) can0 1F9F5FFF#0101010101010101
(1690486562.601617) can0 1F9F5FFF#0101010101010101
(1690486562.601788) can0 1F9F5FFF#0101010101010101
(1690486562.601965) can0 1F9F5FFF#0101010101010101
(1690486562.602132) can0 1F9F5FFF#0101010101010101
(1690486562.602303) can0 1F9F5FFF#0101010101010101
(1690486562.618094) can0 1FBF5FFF#0000BFFDFFDF7FF7
(1690486562.618268) can0 1F9F5FFF#0001010101010101
(1690486562.618439) can0 1F9F5FFF#0101010101010101
(1690486562.618612) can0 1F9F5FFF#0101010101010101
(1690486562.618784) can0 1F9F5FFF#0101010101010101
(1690486562.618955) can0 1F9F5FFF#0101010101010101
(1690486562.619127) can0 1F9F5FFF#0101010101010101
(1690486562.619299) can0 1F9F5FFF#0101010101010101
(1690486562.619472) can0 1F9F5FFF#0101010101010101
(1690486562.635262) can0 1FBF5FFF#0000BFFDFFDF7FF7
(1690486562.635437) can0 1F9F5FFF#0001010101010101
(1690486562.635608) can0 1F9F5FFF#0101010101010101
(1690486562.635780) can0 1F9F5FFF#0101010101010101
(1690486562.635952) can0 1F9F5FFF#0101010101010101
(1690486562.636123) can0 1F9F5FFF#0101010101010101
(1690486562.636295) can0 1F9F5FFF#0101010101010101
(1690486562.636469) can0 1F9F5FFF#0101010101010101
(1690486562.636639) can0 1F9F5FFF#0101010101010101
(1690486562.652428) can0 1FBF5FFF#0000BFFDFFDF7FF7
(1690486562.652608) can0 1F9F5FFF#0001010101010101
(1690486562.652775) can0 1F9F5FFF#0101010101010101
(1690486562.652948) can0 1F9F5FFF#0101010101010101
(1690486562.653121) can0 1F9F5FFF#0101010101010101
(1690486562.653291) can0 1F9F5FFF#0101010101010101
(1690486562.653464) can0 1F9F5FFF#0101010101010101
(1690486562.653635) can0 1F9F5FFF#0101010101010101
(1690486562.653808) can0 1F9F5FFF#0101010101010101
(1690486562.669613) can0 1FBF5FFF#0000BFFDFFDF7FF7
(1690486562.669789) can0 1F9F5FFF#0001010101010101
(1690486562.669962) can0 1F9F5FFF#0101010101010101
(1690486562.670157) can0 1F9F5FFF#0101010101010101
(1690486562.670305) can0 1F9F5FFF#0101010101010101
(1690486562.670497) can0 1F9F5FFF#0101010101010101
(1690486562.670677) can0 1F9F5FFF#0101010101010101
(1690486562.670831) can0 1F9F5FFF#0101010101010101
(1690486562.670997) can0 1F9F5FFF#0101010101010101
(1690486562.686784) can0 1FBF5FFF#0000BFFDFFDF7FF7
(1690486562.686961) can0 1F9F5FFF#0001010101010101
(1690486562.687131) can0 1F9F5FFF#0101010101010101
(1690486562.687303) can0 1F9F5FFF#0101010101010101
(1690486562.687476) can0 1F9F5FFF#0101010101010101
(1690486562.687648) can0 1F9F5FFF#0101010101010101
(1690486562.687820) can0 1F9F5FFF#0101010101010101
(1690486562.687992) can0 1F9F5FFF#0101010101010101
(1690486562.688163) can0 1F9F5FFF#0101010101010101
(1690486562.703969) can0 1FBF5FFF#0000BFFDFFDF7FF7
(1690486562.704146) can0 1F9F5FFF#0001010101010101
(1690486562.704297) can0 1F9F5FFF#0101010101010101
(1690486562.704475) can0 1F9F5FFF#0101010101010101
(1690486562.704646) can0 1F9F5FFF#0101010101010101
(1690486562.704818) can0 1F9F5FFF#0101010101010101
(1690486562.704991) can0 1F9F5FFF#0101010101010101
(1690486562.705161) can0 1F9F5FFF#0101010101010101
(1690486562.705334) can0 1F9F5FFF#0101010101010101
(1690486562.721125) can0 1FBF5FFF#0000BFFDFFDF7FF7
(1690486562.721299) can0 1F9F5FFF#0001010101010101
(1690486562.721470) can0 1F9F5FFF#0101010101010101
(1690486562.721641) can0 1F9F5FFF#0101010101010101
(1690486562.721815) can0 1F9F5FFF#0101010101010101
(1690486562.721990) can0 1F9F5FFF#0101010101010101
(1690486562.722157) can0 1F9F5FFF#0101010101010101
(1690486562.722330) can0 1F9F5FFF#0101010101010101
(1690486562.722502) can0 1F9F5FFF#0101010101010101
(1690486562.738561) can0 1FBF3FFF#0000BFFDFFDF7FF7
(1690486562.738738) can0 1F9F3FFF#0001010101010101
(1690486562.738910) can0 1F9F3FFF#0101010101010101
(1690486562.739086) can0 1F9F3FFF#0101010101010101
(1690486562.739258) can0 1F9F3FFF#0101010101010101
(1690486562.739431) can0 1F9F3FFF#0101010101010101
(1690486562.739606) can0 1F9F3FFF#0101010101010101
(1690486562.739779) can0 1F9F3FFF#0101010101010101
(1690486562.739953) can0 1F9F3FFF#0101010101010101
(1690486562.755757) can0 1FBF3FFF#0000BFFDFFDF7FF7
(1690486562.755932) can0 1F9F3FFF#0001010101010101
(1690486562.756106) can0 1F9F3FFF#0101010101010101
(1690486562.756278) can0 1F9F3FFF#0101010101010101
(1690486562.756452) can0 1F9F3FFF#0101010101010101
(1690486562.756627) can0 1F9F3FFF#0101010101010101
(1690486562.756801) can0 1F9F3FFF#0101010101010101
(1690486562.756975) can0 1F9F3FFF#0101010101010101
(1690486562.757148) can0 1F9F3FFF#0101010101010101
(1690486562.772938) can0 1FBF3FFF#0000BFFDFFDF7FF7
(1690486562.773115) can0 1F9F3FFF#0001010101010101
(1690486562.773287) can0 1F9F3FFF#0101010101010101
(1690486562.773462) can0 1F9F3FFF#0101010101010101
(1690486562.773636) can0 1F9F3FFF#0101010101010101
(1690486562.773810) can0 1F9F3FFF#0101010101010101
(1690486562.773985) can0 1F9F3FFF#0101010101010101
(1690486562.774157) can0 1F9F3FFF#0101010101010101
(1690486562.774330) can0 1F9F3FFF#0101010101010101
(1690486562.790121) can0 1FBF3FFF#0000BFFDFFDF7FF7
(1690486562.790297) can0 1F9F3FFF#0001010101010101
(1690486562.790471) can0 1F9F3FFF#0101010101010101
(1690486562.790672) can0 1F9F3FFF#0101010101010101
(1690486562.790826) can0 1F9F3FFF#0101010101010101
(1690486562.790993) can0 1F9F3FFF#0101010101010101
(1690486562.791166) can0 1F9F3FFF#0101010101010101
(1690486562.791341) can0 1F9F3FFF#0101010101010101
(1690486562.791513) can0 1F9F3FFF#0101010101010101
(1690486562.807313) can0 1FBF3FFF#0000BFFDFFDF7FF7
(1690486562.807488) can0 1F9F3FFF#0001010101010101
(1690486562.807649) can0 1F9F3FFF#0101010101010101
(1690486562.807822) can0 1F9F3FFF#0101010101010101
(1690486562.807996) can0 1F9F3FFF#0101010101010101
(1690486562.808170) can0 1F9F3FFF#0101010101010101
(1690486562.808345) can0 1F9F3FFF#0101010101010101
(1690486562.808519) can0 1F9F3FFF#0101010101010101
(1690486562.808692) can0 1F9F3FFF#0101010101010101
(1690486562.824489) can0 1FBF3FFF#0000BFFDFFDF7FF7
(1690486562.824665) can0 1F9F3FFF#0001010101010101
(1690486562.824843) can0 1F9F3FFF#0101010101010101
(1690486562.825012) can0 1F9F3FFF#0101010101010101
(1690486562.825187) can0 1F9F3FFF#0101010101010101
(1690486562.825358) can0 1F9F3FFF#0101010101010101
(1690486562.825531) can0 1F9F3FFF#0101010101010101
(1690486562.825709) can0 1F9F3FFF#0101010101010101
(1690486562.825879) can0 1F9F3FFF#0101010101010101
(1690486562.841668) can0 1FBF3FFF#0000BFFDFFDF7FF7
(1690486562.841848) can0 1F9F3FFF#0001010101010101
(1690486562.842018) can0 1F9F3FFF#0101010101010101
(1690486562.842192) can0 1F9F3FFF#0101010101010101
(1690486562.842367) can0 1F9F3FFF#0101010101010101
(1690486562.842539) can0 1F9F3FFF#0101010101010101
(1690486562.842714) can0 1F9F3FFF#0101010101010101
(1690486562.842887) can0 1F9F3FFF#0101010101010101
(1690486562.843062) can0 1F9F3FFF#0101010101010101
(1690486562.858867) can0 1FBF3FFF#0000BFFDFFDF7FF7
(1690486562.859040) can0 1F9F3FFF#0001010101010101
(1690486562.859214) can0 1F9F3FFF#0101010101010101
(1690486562.859387) can0 1F9F3FFF#0101010101010101
(1690486562.859561) can0 1F9F3FFF#0101010101010101
(1690486562.859735) can0 1F9F3FFF#0101010101010101
(1690486562.859909) can0 1F9F3FFF#0101010101010101
(1690486562.860082) can0 1F9F3FFF#0101010101010101
(1690486562.860255) can0 1F9F3FFF#0101010101010101
(1690486562.876045) can0 1FBF3FFF#0000BFFDFFDF7FF7
(1690486562.876222) can0 1F9F3FFF#0001010101010101
(1690486562.876395) can0 1F9F3FFF#0101010101010101
(1690486562.876569) can0 1F9F3FFF#0101010101010101
(1690486562.876744) can0 1F9F3FFF#0101010101010101
(1690486562.876916) can0 1F9F3FFF#0101010101010101
(1690486562.877092) can0 1F9F3FFF#0101010101010101
(1690486562.877264) can0 1F9F3FFF#0101010101010101
(1690486562.877439) can0 1F9F3FFF#0101010101010101
(1690486562.893228) can0 1FBF3FFF#0000BFFDFFDF7FF7
(1690486562.893404) can0 1F9F3FFF#0001010101010101
(1690486562.893578) can0 1F9F3FFF#0101010101010101
(1690486562.893751) can0 1F9F3FFF#0101010101010101
(1690486562.893925) can0 1F9F3FFF#0101010101010101
(1690486562.894100) can0 1F9F3FFF#0101010101010101
(1690486562.894274) can0 1F9F3FFF#0101010101010101
(1690486562.894446) can0 1F9F3FFF#0101010101010101
(1690486562.894622) can0 1F9F3FFF#0101010101010101
(1690486562.910784) can0 1FBF1FFF#0000BFFDFFDF7FF7
(1690486562.910946) can0 1F9F1FFF#0001010101010101
(1690486562.911117) can0 1F9F1FFF#0101010101010101
(1690486562.911289) can0 1F9F1FFF#0101010101010101
(1690486562.911463) can0 1F9F1FFF#0101010101010101
(1690486562.911634) can0 1F9F1FFF#0101010101010101
(1690486562.911806) can0 1F9F1FFF#0101010101010101
(1690486562.911978) can0 1F9F1FFF#0101010101010101
(1690486562.912150) can0 1F9F1FFF#0101010101010101
(1690486562.927941) can0 1FBF1FFF#0000BFFDFFDF7FF7
(1690486562.928120) can0 1F9F1FFF#0001010101010101
(1690486562.928290) can0 1F9F1FFF#0101010101010101
(1690486562.928463) can0 1F9F1FFF#0101010101010101
(1690486562.928634) can0 1F9F1FFF#0101010101010101
(1690486562.928806) can0 1F9F1FFF#0101010101010101
(1690486562.928979) can0 1F9F1FFF#0101010101010101
(1690486562.929150) can0 1F9F1FFF#0101010101010101
(1690486562.929323) can0 1F9F1FFF#0101010101010101
(1690486562.945116) can0 1FBF1FFF#0000BFFDFFDF7FF7
(1690486562.945295) can0 1F9F1FFF#0001010101010101
(1690486562.945462) can0 1F9F1FFF#0101010101010101
(1690486562.945634) can0 1F9F1FFF#0101010101010101
(1690486562.945806) can0 1F9F1FFF#0101010101010101
(1690486562.945982) can0 1F9F1FFF#0101010101010101
(1690486562.946151) can0 1F9F1FFF#0101010101010101
(1690486562.946323) can0 1F9F1FFF#0101010101010101
(1690486562.946497) can0 1F9F1FFF#0101010101010101
(1690486562.962299) can0 1FBF1FFF#0000BFFDFFDF7FF7
(1690486562.962476) can0 1F9F1FFF#0001010101010101
(1690486562.962649) can0 1F9F1FFF#0101010101010101
(1690486562.962821) can0 1F9F1FFF#0101010101010101
(1690486562.962997) can0 1F9F1FFF#0101010101010101
(1690486562.963165) can0 1F9F1FFF#0101010101010101
(1690486562.963338) can0 1F9F1FFF#0101010101010101
(1690486562.963510) can0 1F9F1FFF#0101010101010101
(1690486562.963683) can0 1F9F1FFF#0101010101010101
(1690486562.979473) can0 1FBF1FFF#0000BFFDFFDF7FF7
(1690486562.979649) can0 1F9F1FFF#0001010101010101
(1690486562.979821) can0 1F9F1FFF#0101010101010101
(1690486562.979994) can0 1F9F1FFF#0101010101010101
(1690486562.980164) can0 1F9F1FFF#0101010101010101
(1690486562.980340) can0 1F9F1FFF#0101010101010101
(1690486562.980511) can0 1F9F1FFF#0101010101010101
(1690486562.980690) can0 1F9F1FFF#0101010101010101
(1690486562.980857) can0 1F9F1FFF#0101010101010101
(1690486562.996643) can0 1FBF1FFF#0000BFFDFFDF7FF7
(1690486562.996821) can0 1F9F1FFF#0001010101010101
(1690486562.996996) can0 1F9F1FFF#0101010101010101
(1690486562.997166) can0 1F9F1FFF#0101010101010101
(1690486562.997339) can0 1F9F1FFF#0101010101010101
(1690486562.997511) can0 1F9F1FFF#0101010101010101
(1690486562.997683) can0 1F9F1FFF#0101010101010101
(1690486562.997856) can0 1F9F1FFF#0101010101010101
(1690486562.998029) can0 1F9F1FFF#0101010101010101
(1690486563.013829) can0 1FBF1FFF#0000BFFDFFDF7FF7
(1690486563.014006) can0 1F9F1FFF#0001010101010101
(1690486563.014170) can0 1F9F1FFF#0101010101010101
(1690486563.014340) can0 1F9F1FFF#0101010101010101
(1690486563.014511) can0 1F9F1FFF#0101010101010101
(1690486563.014683) can0 1F9F1FFF#0101010101010101
(1690486563.014857) can0 1F9F1FFF#0101010101010101
(1690486563.015028) can0 1F9F1FFF#0101010101010101
(1690486563.015200) can0 1F9F1FFF#0101010101010101
(1690486563.030995) can0 1FBF1FFF#0000BFFDFFDF7FF7
(1690486563.031165) can0 1F9F1FFF#0001010101010101
(1690486563.031338) can0 1F9F1FFF#0101010101010101
(1690486563.031509) can0 1F9F1FFF#0101010101010101
(1690486563.031682) can0 1F9F1FFF#0101010101010101
(1690486563.031854) can0 1F9F1FFF#0101010101010101
(1690486563.032026) can0 1F9F1FFF#0101010101010101
(1690486563.032198) can0 1F9F1FFF#0101010101010101
(1690486563.032372) can0 1F9F1FFF#0101010101010101
(1690486563.048159) can0 1FBF1FFF#0000BFFDFFDF7FF7
(1690486563.048338) can0 1F9F1FFF#0001010101010101
(1690486563.048510) can0 1F9F1FFF#0101010101010101
(1690486563.048682) can0 1F9F1FFF#0101010101010101
(1690486563.048855) can0 1F9F1FFF#0101010101010101
(1690486563.049026) can0 1F9F1FFF#0101010101010101
(1690486563.049199) can0 1F9F1FFF#0101010101010101
(1690486563.049372) can0 1F9F1FFF#0101010101010101
(1690486563.049544) can0 1F9F1FFF#0101010101010101
(1690486563.065383) can0 1FBF1FFF#0000BFFDFFDF7FF7
(1690486563.065530) can0 1F9F1FFF#0001010101010101
(1690486563.065695) can0 1F9F1FFF#0101010101010101
(1690486563.065878) can0 1F9F1FFF#0101010101010101
(1690486563.066046) can0 1F9F1FFF#0101010101010101
(1690486563.066215) can0 1F9F1FFF#0101010101010101
(1690486563.066386) can0 1F9F1FFF#0101010101010101
(1690486563.066558) can0 1F9F1FFF#0101010101010101
(1690486563.066732) can0 1F9F1FFF#0101010101010101
(1690486563.082880) can0 1FBEFFFF#0000BFFDFFDF7FF7
(1690486563.083054) can0 1F9EFFFF#0001010101010101
(1690486563.083225) can0 1F9EFFFF#0101010101010101
(1690486563.083398) can0 1F9EFFFF#0101010101010101
(1690486563.083572) can0 1F9EFFFF#0101010101010101
(1690486563.083748) can0 1F9EFFFF#0101010101010101
(1690486563.083921) can0 1F9EFFFF#0101010101010101
(1690486563.084095) can0 1F9EFFFF#0101010101010101
(1690486563.084268) can0 1F9EFFFF#0101010101010101
(1690486563.100059) can0 1FBEFFFF#0000BFFDFFDF7FF7
(1690486563.100235) can0 1F9EFFFF#0001010101010101
(1690486563.100407) can0 1F9EFFFF#0101010101010101
(1690486563.100582) can0 1F9EFFFF#0101010101010101
(1690486563.100754) can0 1F9EFFFF#0101010101010101
(1690486563.100930) can0 1F9EFFFF#0101010101010101
(1690486563.101103) can0 1F9EFFFF#0101010101010101
(1690486563.101278) can0 1F9EFFFF#0101010101010101
(1690486563.101450) can0 1F9EFFFF#0101010101010101
(1690486563.117257) can0 1FBEFFFF#0000BFFDFFDF7FF7
(1690486563.117414) can0 1F9EFFFF#0001010101010101
(1690486563.117592) can0 1F9EFFFF#0101010101010101
(1690486563.117764) can0 1F9EFFFF#0101010101010101
(1690486563.117939) can0 1F9EFFFF#0101010101010101
(1690486563.118114) can0 1F9EFFFF#0101010101010101
(1690486563.118286) can0 1F9EFFFF#0101010101010101
(1690486563.118459) can0 1F9EFFFF#0101010101010101
(1690486563.118634) can0 1F9EFFFF#0101010101010101
(1690486563.134425) can0 1FBEFFFF#0000BFFDFFDF7FF7
(1690486563.134633) can0 1F9EFFFF#0001010101010101
(1690486563.134775) can0 1F9EFFFF#0101010101010101
(1690486563.134948) can0 1F9EFFFF#0101010101010101
(1690486563.135124) can0 1F9EFFFF#0101010101010101
(1690486563.135295) can0 1F9EFFFF#0101010101010101
(1690486563.135470) can0 1F9EFFFF#0101010101010101
(1690486563.135643) can0 1F9EFFFF#0101010101010101
(1690486563.135816) can0 1F9EFFFF#0101010101010101
(1690486563.151606) can0 1FBEFFFF#0000BFFDFFDF7FF7
(1690486563.151784) can0 1F9EFFFF#0001010101010101
(1690486563.151956) can0 1F9EFFFF#0101010101010101
(1690486563.152129) can0 1F9EFFFF#0101010101010101
(1690486563.152303) can0 1F9EFFFF#0101010101010101
(1690486563.152477) can0 1F9EFFFF#0101010101010101
(1690486563.152651) can0 1F9EFFFF#0101010101010101
(1690486563.152826) can0 1F9EFFFF#0101010101010101
(1690486563.153000) can0 1F9EFFFF#0101010101010101
(1690486563.168803) can0 1FBEFFFF#0000BFFDFFDF7FF7
(1690486563.168979) can0 1F9EFFFF#0001010101010101
(1690486563.169152) can0 1F9EFFFF#0101010101010101
(1690486563.169326) can0 1F9EFFFF#0101010101010101
(1690486563.169501) can0 1F9EFFFF#0101010101010101
(1690486563.169673) can0 1F9EFFFF#0101010101010101
(1690486563.169852) can0 1F9EFFFF#0101010101010101
(1690486563.170024) can0 1F9EFFFF#0101010101010101
(1690486563.170196) can0 1F9EFFFF#0101010101010101
(1690486563.185989) can0 1FBEFFFF#0000BFFDFFDF7FF7
(1690486563.186163) can0 1F9EFFFF#0001010101010101
(1690486563.186338) can0 1F9EFFFF#0101010101010101
(1690486563.186510) can0 1F9EFFFF#0101010101010101
(1690486563.186685) can0 1F9EFFFF#0101010101010101
(1690486563.186861) can0 1F9EFFFF#0101010101010101
(1690486563.187032) can0 1F9EFFFF#0101010101010101
(1690486563.187206) can0 1F9EFFFF#0101010101010101
(1690486563.187380) can0 1F9EFFFF#0101010101010101
(1690486563.203172) can0 1FBEFFFF#0000BFFDFFDF7FF7
(1690486563.203348) can0 1F9EFFFF#0001010101010101
(1690486563.203519) can0 1F9EFFFF#0101010101010101
(1690486563.203694) can0 1F9EFFFF#0101010101010101
(1690486563.203868) can0 1F9EFFFF#0101010101010101
(1690486563.204041) can0 1F9EFFFF#0101010101010101
(1690486563.204216) can0 1F9EFFFF#0101010101010101
(1690486563.204389) can0 1F9EFFFF#0101010101010101
(1690486563.204563) can0 1F9EFFFF#0101010101010101
(1690486563.220361) can0 1FBEFFFF#0000BFFDFFDF7FF7
(1690486563.220537) can0 1F9EFFFF#0001010101010101
(1690486563.220709) can0 1F9EFFFF#0101010101010101
(1690486563.220879) can0 1F9EFFFF#0101010101010101
(1690486563.221053) can0 1F9EFFFF#0101010101010101
(1690486563.221226) can0 1F9EFFFF#0101010101010101
(1690486563.221399) can0 1F9EFFFF#0101010101010101
(1690486563.221574) can0 1F9EFFFF#0101010101010101
(1690486563.221748) can0 1F9EFFFF#0101010101010101
(1690486563.237537) can0 1FBEFFFF#0000BFFDFFDF7FF7
(1690486563.237715) can0 1F9EFFFF#0001010101010101
(1690486563.237887) can0 1F9EFFFF#0101010101010101
(1690486563.238060) can0 1F9EFFFF#0101010101010101
(1690486563.238236) can0 1F9EFFFF#0101010101010101
(1690486563.238408) can0 1F9EFFFF#0101010101010101
(1690486563.238582) can0 1F9EFFFF#0101010101010101
(1690486563.238756) can0 1F9EFFFF#0101010101010101
(1690486563.238932) can0 1F9EFFFF#0101010101010101
(1690486563.296871) can0 1FBEDFFF#0000BFFDFFDF7FF7
(1690486563.297045) can0 1F9EDFFF#0001010101010101
(1690486563.297215) can0 1F9EDFFF#0101010101010101
(1690486563.297387) can0 1F9EDFFF#0101010101010101
(1690486563.297558) can0 1F9EDFFF#0101010101010101
(1690486563.297733) can0 1F9EDFFF#0101010101010101
(1690486563.297902) can0 1F9EDFFF#0101010101010101
(1690486563.298074) can0 1F9EDFFF#0101010101010101
(1690486563.298247) can0 1F9EDFFF#0101010101010101
(1690486563.314036) can0 1FBEDFFF#0000BFFDFFDF7FF7
(1690486563.314210) can0 1F9EDFFF#0001010101010101
(1690486563.314382) can0 1F9EDFFF#0101010101010101
(1690486563.314554) can0 1F9EDFFF#0101010101010101
(1690486563.314729) can0 1F9EDFFF#0101010101010101
(1690486563.314899) can0 1F9EDFFF#0101010101010101
(1690486563.315070) can0 1F9EDFFF#0101010101010101
(1690486563.315243) can0 1F9EDFFF#0101010101010101
(1690486563.315414) can0 1F9EDFFF#0101010101010101
(1690486563.331214) can0 1FBEDFFF#0000BFFDFFDF7FF7
(1690486563.331392) can0 1F9EDFFF#0001010101010101
(1690486563.331556) can0 1F9EDFFF#0101010101010101
(1690486563.331724) can0 1F9EDFFF#0101010101010101
(1690486563.331895) can0 1F9EDFFF#0101010101010101
(1690486563.332067) can0 1F9EDFFF#0101010101010101
(1690486563.332239) can0 1F9EDFFF#0101010101010101
(1690486563.332410) can0 1F9EDFFF#0101010101010101
(1690486563.332582) can0 1F9EDFFF#0101010101010101
(1690486563.348373) can0 1FBEDFFF#0000BFFDFFDF7FF7
(1690486563.348547) can0 1F9EDFFF#0001010101010101
(1690486563.348720) can0 1F9EDFFF#0101010101010101
(1690486563.348890) can0 1F9EDFFF#0101010101010101
(1690486563.349064) can0 1F9EDFFF#0101010101010101
(1690486563.349236) can0 1F9EDFFF#0101010101010101
(1690486563.349406) can0 1F9EDFFF#0101010101010101
(1690486563.349579) can0 1F9EDFFF#0101010101010101
(1690486563.349752) can0 1F9EDFFF#0101010101010101
(1690486563.365555) can0 1FBEDFFF#0000BFFDFFDF7FF7
(1690486563.365729) can0 1F9EDFFF#0001010101010101
(1690486563.365901) can0 1F9EDFFF#0101010101010101
(1690486563.366073) can0 1F9EDFFF#0101010101010101
(1690486563.366246) can0 1F9EDFFF#0101010101010101
(1690486563.366417) can0 1F9EDFFF#0101010101010101
(1690486563.366590) can0 1F9EDFFF#0101010101010101
(1690486563.366760) can0 1F9EDFFF#0101010101010101
(1690486563.366933) can0 1F9EDFFF#0101010101010101
(1690486563.382728) can0 1FBEDFFF#0000BFFDFFDF7FF7
(1690486563.382899) can0 1F9EDFFF#0001010101010101
(1690486563.383069) can0 1F9EDFFF#0101010101010101
(1690486563.383242) can0 1F9EDFFF#0101010101010101
(1690486563.383413) can0 1F9EDFFF#0101010101010101
(1690486563.383585) can0 1F9EDFFF#0101010101010101
(1690486563.383757) can0 1F9EDFFF#0101010101010101
(1690486563.383929) can0 1F9EDFFF#0101010101010101
(1690486563.384102) can0 1F9EDFFF#0101010101010101
(1690486563.399892) can0 1FBEDFFF#0000BFFDFFDF7FF7
(1690486563.400067) can0 1F9EDFFF#0001010101010101
(1690486563.400238) can0 1F9EDFFF#0101010101010101
(1690486563.400409) can0 1F9EDFFF#0101010101010101
(1690486563.400582) can0 1F9EDFFF#0101010101010101
(1690486563.400773) can0 1F9EDFFF#0101010101010101
(1690486563.400927) can0 1F9EDFFF#0101010101010101
(1690486563.401099) can0 1F9EDFFF#0101010101010101
(1690486563.401269) can0 1F9EDFFF#0101010101010101
(1690486563.417059) can0 1FBEDFFF#0000BFFDFFDF7FF7
(1690486563.417234) can0 1F9EDFFF#0001010101010101
(1690486563.417405) can0 1F9EDFFF#0101010101010101
(1690486563.417578) can0 1F9EDFFF#0101010101010101
(1690486563.417756) can0 1F9EDFFF#0101010101010101
(1690486563.417923) can0 1F9EDFFF#0101010101010101
(1690486563.418095) can0 1F9EDFFF#0101010101010101
(1690486563.418265) can0 1F9EDFFF#0101010101010101
(1690486563.418437) can0 1F9EDFFF#0101010101010101
(1690486563.434240) can0 1FBEDFFF#0000BFFDFFDF7FF7
(1690486563.434400) can0 1F9EDFFF#0001010101010101
(1690486563.434573) can0 1F9EDFFF#0101010101010101
(1690486563.434749) can0 1F9EDFFF#0101010101010101
(1690486563.434917) can0 1F9EDFFF#0101010101010101
(1690486563.435092) can0 1F9EDFFF#0101010101010101
(1690486563.435261) can0 1F9EDFFF#0101010101010101
(1690486563.435433) can0 1F9EDFFF#0101010101010101
(1690486563.435605) can0 1F9EDFFF#0101010101010101
(1690486563.451397) can0 1FBEDFFF#0000BFFDFFDF7FF7
(1690486563.451568) can0 1F9EDFFF#0001010101010101
(1690486563.451743) can0 1F9EDFFF#0101010101010101
(1690486563.451914) can0 1F9EDFFF#0101010101010101
(1690486563.452086) can0 1F9EDFFF#0101010101010101
(1690486563.452258) can0 1F9EDFFF#0101010101010101
(1690486563.452430) can0 1F9EDFFF#0101010101010101
(1690486563.452603) can0 1F9EDFFF#0101010101010101
(1690486563.452773) can0 1F9EDFFF#0101010101010101
(1690486563.468852) can0 1FBFDFFF#0100BFFDFFDF7FF7
(1690486563.469027) can0 1F9FDFFF#1010101000202020
(1690486563.469200) can0 1F9FDFFF#204040C080800000
(1690486563.469374) can0 1F9FDFFF#1010002020202020
(1690486563.469544) can0 1F9FDFFF#4040408080800000
(1690486563.469718) can0 1F9FDFFF#0000202020202040
(1690486563.469891) can0 1F9FDFFF#4040C08080000000
(1690486563.470062) can0 1F9FDFFF#2020202020004040
(1690486563.470240) can0 1F9FDFFF#40C0808080000000
(1690486563.470376) can0 1F7FDFFF#FFFF
(1690486563.470901) can0 1FBFBFFF#0100BFFDFFDF7FF7
(1690486563.471077) can0 1F9FBFFF#0000000000000000
(1690486563.471249) can0 1F9FBFFF#0000008090F0F060
(1690486563.471425) can0 1F9FBFFF#0000000000000000
(1690486563.471598) can0 1F9FBFFF#0000000090F0F060
(1690486563.471771) can0 1F9FBFFF#0000000000000000
(1690486563.471945) can0 1F9FBFFF#0000000090F0F060
(1690486563.472123) can0 1F9FBFFF#0000000000000000
(1690486563.472293) can0 1F9FBFFF#0000001090F0F060
(1690486563.472431) can0 1F7FBFFF#FFFB
(1690486563.472953) can0 1FBF9FFF#0100BFFDFFDF7FF7
(1690486563.473134) can0 1F9F9FFF#4040404040002020
(1690486563.473307) can0 1F9F9FFF#2030101010000000
(1690486563.473480) can0 1F9F9FFF#0000404040404020
(1690486563.473654) can0 1F9F9FFF#2020301010000000
(1690486563.473827) can0 1F9F9FFF#8080004040404040
(1690486563.474003) can0 1F9F9FFF#2020201010100000
(1690486563.474172) can0 1F9F9FFF#8080808000404040
(1690486563.474344) can0 1F9F9FFF#4020203010100000
(1690486563.490133) can0 1FBF9FFF#0100BFFDFFDF7FF7
(1690486563.490309) can0 1F9F9FFF#4040404040002020
(1690486563.490485) can0 1F9F9FFF#2030101010000000
(1690486563.490682) can0 1F9F9FFF#0000404040404020
(1690486563.490835) can0 1F9F9FFF#2020301010000000
(1690486563.491006) can0 1F9F9FFF#8080004040404040
(1690486563.491175) can0 1F9F9FFF#2020201010100000
(1690486563.491349) can0 1F9F9FFF#8080808000404040
(1690486563.491519) can0 1F9F9FFF#4020203010100000
(1690486563.507309) can0 1FBF9FFF#0100BFFDFFDF7FF7
(1690486563.507488) can0 1F9F9FFF#4040404040002020
(1690486563.507661) can0 1F9F9FFF#2030101010000000
(1690486563.507833) can0 1F9F9FFF#0000404040404020
(1690486563.508008) can0 1F9F9FFF#2020301010000000
(1690486563.508178) can0 1F9F9FFF#8080004040404040
(1690486563.508353) can0 1F9F9FFF#2020201010100000
(1690486563.508524) can0 1F9F9FFF#8080808000404040
(1690486563.508695) can0 1F9F9FFF#4020203010100000
(1690486563.524488) can0 1FBF9FFF#0100BFFDFFDF7FF7
(1690486563.524664) can0 1F9F9FFF#4040404040002020
(1690486563.524839) can0 1F9F9FFF#2030101010000000
(1690486563.525010) can0 1F9F9FFF#0000404040404020
(1690486563.525184) can0 1F9F9FFF#2020301010000000
(1690486563.525355) can0 1F9F9FFF#8080004040404040
(1690486563.525530) can0 1F9F9FFF#2020201010100000
(1690486563.525701) can0 1F9F9FFF#8080808000404040
(1690486563.525874) can0 1F9F9FFF#4020203010100000
(1690486563.541677) can0 1FBF9FFF#0100BFFDFFDF7FF7
(1690486563.541854) can0 1F9F9FFF#4040404040002020
(1690486563.542018) can0 1F9F9FFF#2030101010000000
(1690486563.542187) can0 1F9F9FFF#0000404040404020
(1690486563.542363) can0 1F9F9FFF#2020301010000000
(1690486563.542533) can0 1F9F9FFF#8080004040404040
(1690486563.542706) can0 1F9F9FFF#2020201010100000
(1690486563.542879) can0 1F9F9FFF#8080808000404040
(1690486563.543049) can0 1F9F9FFF#4020203010100000
(1690486563.558854) can0 1FBF9FFF#0100BFFDFFDF7FF7
(1690486563.559030) can0 1F9F9FFF#4040404040002020
(1690486563.559204) can0 1F9F9FFF#2030101010000000
(1690486563.559379) can0 1F9F9FFF#0000404040404020
(1690486563.559552) can0 1F9F9FFF#2020301010000000
(1690486563.559725) can0 1F9F9FFF#8080004040404040
(1690486563.559897) can0 1F9F9FFF#2020201010100000
(1690486563.560069) can0 1F9F9FFF#8080808000404040
(1690486563.560242) can0 1F9F9FFF#4020203010100000
(1690486563.576030) can0 1FBF9FFF#0100BFFDFFDF7FF7
(1690486563.576208) can0 1F9F9FFF#4040404040002020
(1690486563.576382) can0 1F9F9FFF#2030101010000000
(1690486563.576554) can0 1F9F9FFF#0000404040404020
(1690486563.576730) can0 1F9F9FFF#2020301010000000
(1690486563.576901) can0 1F9F9FFF#8080004040404040
(1690486563.577074) can0 1F9F9FFF#2020201010100000
(1690486563.577249) can0 1F9F9FFF#8080808000404040
(1690486563.577418) can0 1F9F9FFF#4020203010100000
(1690486563.593208) can0 1FBF9FFF#0100BFFDFFDF7FF7
(1690486563.593385) can0 1F9F9FFF#4040404040002020
(1690486563.593559) can0 1F9F9FFF#2030101010000000
(1690486563.593737) can0 1F9F9FFF#0000404040404020
(1690486563.593906) can0 1F9F9FFF#2020301010000000
(1690486563.594079) can0 1F9F9FFF#8080004040404040
(1690486563.594252) can0 1F9F9FFF#2020201010100000
(1690486563.594430) can0 1F9F9FFF#8080808000404040
(1690486563.594596) can0 1F9F9FFF#4020203010100000
(1690486563.610385) can0 1FBF9FFF#0100BFFDFFDF7FF7
(1690486563.610562) can0 1F9F9FFF#4040404040002020
(1690486563.610738) can0 1F9F9FFF#2030101010000000
(1690486563.610910) can0 1F9F9FFF#0000404040404020
(1690486563.611084) can0 1F9F9FFF#2020301010000000
(1690486563.611256) can0 1F9F9FFF#8080004040404040
(1690486563.611429) can0 1F9F9FFF#2020201010100000
(1690486563.611602) can0 1F9F9FFF#8080808000404040
(1690486563.611772) can0 1F9F9FFF#4020203010100000
(1690486563.627562) can0 1FBF9FFF#0100BFFDFFDF7FF7
(1690486563.627741) can0 1F9F9FFF#4040404040002020
(1690486563.627913) can0 1F9F9FFF#2030101010000000
(1690486563.628086) can0 1F9F9FFF#0000404040404020
(1690486563.628260) can0 1F9F9FFF#2020301010000000
(1690486563.628433) can0 1F9F9FFF#8080004040404040
(1690486563.628606) can0 1F9F9FFF#2020201010100000
(1690486563.628778) can0 1F9F9FFF#8080808000404040
(1690486563.628949) can0 1F9F9FFF#4020203010100000
(1690486563.686873) can0 1FBF7FFF#0100BFFDFFDF7FF7
(1690486563.687052) can0 1F9F7FFF#1010100000000000
(1690486563.687229) can0 1F9F7FFF#0000000010101010
(1690486563.687401) can0 1F9F7FFF#1010101010101010
(1690486563.687575) can0 1F9F7FFF#1010101010101010
(1690486563.687751) can0 1F9F7FFF#1010101010101010
(1690486563.687923) can0 1F9F7FFF#1010101010101010
(1690486563.688099) can0 1F9F7FFF#0000001010101010
(1690486563.688272) can0 1F9F7FFF#1010101000000020
(1690486563.704070) can0 1FBF7FFF#0100BFFDFFDF7FF7
(1690486563.704246) can0 1F9F7FFF#1010100000000000
(1690486563.704420) can0 1F9F7FFF#0000000010101010
(1690486563.704595) can0 1F9F7FFF#1010101010101010
(1690486563.704768) can0 1F9F7FFF#1010101010101010
(1690486563.704943) can0 1F9F7FFF#1010101010101010
(1690486563.705116) can0 1F9F7FFF#1010101010101010
(1690486563.705290) can0 1F9F7FFF#0000001010101010
(1690486563.705466) can0 1F9F7FFF#1010101000000020
(1690486563.721258) can0 1FBF7FFF#0100BFFDFFDF7FF7
(1690486563.721436) can0 1F9F7FFF#1010100000000000
(1690486563.721612) can0 1F9F7FFF#0000000010101010
(1690486563.721785) can0 1F9F7FFF#1010101010101010
(1690486563.721957) can0 1F9F7FFF#1010101010101010
(1690486563.722132) can0 1F9F7FFF#1010101010101010
(1690486563.722305) can0 1F9F7FFF#1010101010101010
(1690486563.722480) can0 1F9F7FFF#0000001010101010
(1690486563.722654) can0 1F9F7FFF#1010101000000020
(1690486563.738445) can0 1FBF7FFF#0100BFFDFFDF7FF7
(1690486563.738626) can0 1F9F7FFF#1010100000000000
(1690486563.738799) can0 1F9F7FFF#0000000010101010
(1690486563.738977) can0 1F9F7FFF#1010101010101010
(1690486563.739147) can0 1F9F7FFF#1010101010101010
(1690486563.739321) can0 1F9F7FFF#1010101010101010
(1690486563.739496) can0 1F9F7FFF#1010101010101010
(1690486563.739671) can0 1F9F7FFF#0000001010101010
(1690486563.739845) can0 1F9F7FFF#1010101000000020
(1690486563.755660) can0 1FBF7FFF#0100BFFDFFDF7FF7
(1690486563.755835) can0 1F9F7FFF#1010100000000000
(1690486563.756008) can0 1F9F7FFF#0000000010101010
(1690486563.756182) can0 1F9F7FFF#1010101010101010
(1690486563.756356) can0 1F9F7FFF#1010101010101010
(1690486563.756531) can0 1F9F7FFF#1010101010101010
(1690486563.756704) can0 1F9F7FFF#1010101010101010
(1690486563.756880) can0 1F9F7FFF#0000001010101010
(1690486563.757053) can0 1F9F7FFF#1010101000000020
(1690486563.772848) can0 1FBF7FFF#0100BFFDFFDF7FF7
(1690486563.773026) can0 1F9F7FFF#1010100000000000
(1690486563.773201) can0 1F9F7FFF#0000000010101010
(1690486563.773375) can0 1F9F7FFF#1010101010101010
(1690486563.773548) can0 1F9F7FFF#1010101010101010
(1690486563.773722) can0 1F9F7FFF#1010101010101010
(1690486563.773896) can0 1F9F7FFF#1010101010101010
(1690486563.774071) can0 1F9F7FFF#0000001010101010
(1690486563.774247) can0 1F9F7FFF#1010101000000020
(1690486563.790037) can0 1FBF7FFF#0100BFFDFFDF7FF7
(1690486563.790219) can0 1F9F7FFF#1010100000000000
(1690486563.790393) can0 1F9F7FFF#0000000010101010
(1690486563.790568) can0 1F9F7FFF#1010101010101010
(1690486563.790741) can0 1F9F7FFF#1010101010101010
(1690486563.790916) can0 1F9F7FFF#1010101010101010
(1690486563.791088) can0 1F9F7FFF#1010101010101010
(1690486563.791269) can0 1F9F7FFF#0000001010101010
(1690486563.791439) can0 1F9F7FFF#1010101000000020
(1690486563.807232) can0 1FBF7FFF#0100BFFDFFDF7FF7
(1690486563.807411) can0 1F9F7FFF#1010100000000000
(1690486563.807586) can0 1F9F7FFF#0000000010101010
(1690486563.807760) can0 1F9F7FFF#1010101010101010
(1690486563.807934) can0 1F9F7FFF#1010101010101010
(1690486563.808107) can0 1F9F7FFF#1010101010101010
(1690486563.808281) can0 1F9F7FFF#1010101010101010
(1690486563.808456) can0 1F9F7FFF#0000001010101010
(1690486563.808631) can0 1F9F7FFF#1010101000000020
(1690486563.824429) can0 1FBF7FFF#0100BFFDFFDF7FF7
(1690486563.824605) can0 1F9F7FFF#1010100000000000
(1690486563.824777) can0 1F9F7FFF#0000000010101010
(1690486563.824950) can0 1F9F7FFF#1010101010101010
(1690486563.825125) can0 1F9F7FFF#1010101010101010
(1690486563.825297) can0 1F9F7FFF#1010101010101010
(1690486563.825473) can0 1F9F7FFF#1010101010101010
(1690486563.825646) can0 1F9F7FFF#0000001010101010
(1690486563.825823) can0 1F9F7FFF#1010101000000020
(1690486563.841613) can0 1FBF7FFF#0100BFFDFFDF7FF7
(1690486563.841788) can0 1F9F7FFF#1010100000000000
(1690486563.841961) can0 1F9F7FFF#0000000010101010
(1690486563.842135) can0 1F9F7FFF#1010101010101010
(1690486563.842310) can0 1F9F7FFF#1010101010101010
(1690486563.842484) can0 1F9F7FFF#1010101010101010
(1690486563.842658) can0 1F9F7FFF#1010101010101010
(1690486563.842832) can0 1F9F7FFF#0000001010101010
(1690486563.843006) can0 1F9F7FFF#1010101000000020
(1690486563.859089) can0 1FBF5FFF#0100BFFDFFDF7FF7
(1690486563.859265) can0 1F9F5FFF#0000000000000000
(1690486563.859439) can0 1F9F5FFF#0000000000000000
(1690486563.859616) can0 1F9F5FFF#0000000000000000
(1690486563.859789) can0 1F9F5FFF#0000000000000000
(1690486563.859967) can0 1F9F5FFF#0000000000000000
(1690486563.860141) can0 1F9F5FFF#0000000000000000
(1690486563.860318) can0 1F9F5FFF#0000000000000000
(1690486563.860494) can0 1F9F5FFF#0000000000000000
(1690486563.876282) can0 1FBF5FFF#0100BFFDFFDF7FF7
(1690486563.876461) can0 1F9F5FFF#0000000000000000
(1690486563.876637) can0 1F9F5FFF#0000000000000000
(1690486563.876812) can0 1F9F5FFF#0000000000000000
(1690486563.876990) can0 1F9F5FFF#0000000000000000
(1690486563.877164) can0 1F9F5FFF#0000000000000000
(1690486563.877342) can0 1F9F5FFF#0000000000000000
(1690486563.877515) can0 1F9F5FFF#0000000000000000
(1690486563.877693) can0 1F9F5FFF#0000000000000000
(1690486563.893482) can0 1FBF5FFF#0100BFFDFFDF7FF7
(1690486563.893661) can0 1F9F5FFF#0000000000000000
(1690486563.893836) can0 1F9F5FFF#0000000000000000
(1690486563.894012) can0 1F9F5FFF#0000000000000000
(1690486563.894188) can0 1F9F5FFF#0000000000000000
(1690486563.894364) can0 1F9F5FFF#0000000000000000
(1690486563.894539) can0 1F9F5FFF#0000000000000000
(1690486563.894714) can0 1F9F5FFF#0000000000000000
(1690486563.894890) can0 1F9F5FFF#0000000000000000
(1690486563.910691) can0 1FBF5FFF#0100BFFDFFDF7FF7
(1690486563.910864) can0 1F9F5FFF#0000000000000000
(1690486563.911035) can0 1F9F5FFF#0000000000000000
(1690486563.911211) can0 1F9F5FFF#0000000000000000
(1690486563.911386) can0 1F9F5FFF#0000000000000000
(1690486563.911562) can0 1F9F5FFF#0000000000000000
(1690486563.911738) can0 1F9F5FFF#0000000000000000
(1690486563.911914) can0 1F9F5FFF#0000000000000000
(1690486563.912089) can0 1F9F5FFF#0000000000000000
(1690486563.927879) can0 1FBF5FFF#0100BFFDFFDF7FF7
(1690486563.928053) can0 1F9F5FFF#0000000000000000
(1690486563.928229) can0 1F9F5FFF#0000000000000000
(1690486563.928404) can0 1F9F5FFF#0000000000000000
(1690486563.928580) can0 1F9F5FFF#0000000000000000
(1690486563.928756) can0 1F9F5FFF#0000000000000000
(1690486563.928931) can0 1F9F5FFF#0000000000000000
(1690486563.929118) can0 1F9F5FFF#0000000000000000
(1690486563.929285) can0 1F9F5FFF#0000000000000000
(1690486563.945079) can0 1FBF5FFF#0100BFFDFFDF7FF7
(1690486563.945253) can0 1F9F5FFF#0000000000000000
(1690486563.945430) can0 1F9F5FFF#0000000000000000
(1690486563.945607) can0 1F9F5FFF#0000000000000000
(1690486563.945783) can0 1F9F5FFF#0000000000000000
(1690486563.945962) can0 1F9F5FFF#0000000000000000
(1690486563.946131) can0 1F9F5FFF#0000000000000000
(1690486563.946314) can0 1F9F5FFF#0000000000000000
(1690486563.946484) can0 1F9F5FFF#0000000000000000
(1690486563.962299) can0 1FBF5FFF#0100BFFDFFDF7FF7
(1690486563.962481) can0 1F9F5FFF#0000000000000000
(1690486563.962645) can0 1F9F5FFF#0000000000000000
(1690486563.962817) can0 1F9F5FFF#0000000000000000
(1690486563.962995) can0 1F9F5FFF#0000000000000000
(1690486563.963168) can0 1F9F5FFF#0000000000000000
(1690486563.963345) can0 1F9F5FFF#0000000000000000
(1690486563.963518) can0 1F9F5FFF#0000000000000000
(1690486563.963695) can0 1F9F5FFF#0000000000000000
(1690486563.979484) can0 1FBF5FFF#0100BFFDFFDF7FF7
(1690486563.979662) can0 1F9F5FFF#0000000000000000
(1690486563.979837) can0 1F9F5FFF#0000000000000000
(1690486563.980013) can0 1F9F5FFF#0000000000000000
(1690486563.980189) can0 1F9F5FFF#0000000000000000
(1690486563.980366) can0 1F9F5FFF#0000000000000000
(1690486563.980540) can0 1F9F5FFF#0000000000000000
(1690486563.980715) can0 1F9F5FFF#0000000000000000
(1690486563.980892) can0 1F9F5FFF#0000000000000000
(1690486563.996681) can0 1FBF5FFF#0100BFFDFFDF7FF7
(1690486563.996860) can0 1F9F5FFF#0000000000000000
(1690486563.997034) can0 1F9F5FFF#0000000000000000
(1690486563.997210) can0 1F9F5FFF#0000000000000000
(1690486563.997385) can0 1F9F5FFF#0000000000000000
(1690486563.997562) can0 1F9F5FFF#0000000000000000
(1690486563.997738) can0 1F9F5FFF#0000000000000000
(1690486563.997913) can0 1F9F5FFF#0000000000000000
(1690486563.998089) can0 1F9F5FFF#0000000000000000
(1690486564.013879) can0 1FBF5FFF#0100BFFDFFDF7FF7
(1690486564.014057) can0 1F9F5FFF#0000000000000000
(1690486564.014233) can0 1F9F5FFF#0000000000000000
(1690486564.014408) can0 1F9F5FFF#0000000000000000
(1690486564.014583) can0 1F9F5FFF#0000000000000000
(1690486564.014760) can0 1F9F5FFF#0000000000000000
(1690486564.014934) can0 1F9F5FFF#0000000000000000
(1690486564.015111) can0 1F9F5FFF#0000000000000000
(1690486564.015286) can0 1F9F5FFF#0000000000000000
(1690486564.031438) can0 1FBF3FFF#0100BFFDFFDF7FF7
(1690486564.031610) can0 1F9F3FFF#0000008080808080
(1690486564.031783) can0 1F9F3FFF#8080808000000040
(1690486564.031954) can0 1F9F3FFF#8080808080808080
(1690486564.032128) can0 1F9F3FFF#8080808080808080
(1690486564.032299) can0 1F9F3FFF#8080808080808080
(1690486564.032471) can0 1F9F3FFF#8080808080808080
(1690486564.032645) can0 1F9F3FFF#8080800000000000
(1690486564.032819) can0 1F9F3FFF#0000000080808080
(1690486564.048608) can0 1FBF3FFF#0100BFFDFFDF7FF7
(1690486564.048786) can0 1F9F3FFF#0000008080808080
(1690486564.048958) can0 1F9F3FFF#8080808000000040
(1690486564.049130) can0 1F9F3FFF#8080808080808080
(1690486564.049302) can0 1F9F3FFF#8080808080808080
(1690486564.049475) can0 1F9F3FFF#8080808080808080
(1690486564.049646) can0 1F9F3FFF#8080808080808080
(1690486564.049823) can0 1F9F3FFF#8080800000000000
(1690486564.049997) can0 1F9F3FFF#0000000080808080
(1690486564.065806) can0 1FBF3FFF#0100BFFDFFDF7FF7
(1690486564.065987) can0 1F9F3FFF#0000008080808080
(1690486564.066151) can0 1F9F3FFF#8080808000000040
(1690486564.066320) can0 1F9F3FFF#8080808080808080
(1690486564.066492) can0 1F9F3FFF#8080808080808080
(1690486564.066663) can0 1F9F3FFF#8080808080808080
(1690486564.066836) can0 1F9F3FFF#8080808080808080
(1690486564.067011) can0 1F9F3FFF#8080800000000000
(1690486564.067183) can0 1F9F3FFF#0000000080808080
(1690486564.082977) can0 1FBF3FFF#0100BFFDFFDF7FF7
(1690486564.083151) can0 1F9F3FFF#0000008080808080
(1690486564.083324) can0 1F9F3FFF#8080808000000040
(1690486564.083497) can0 1F9F3FFF#8080808080808080
(1690486564.083668) can0 1F9F3FFF#8080808080808080
(1690486564.083840) can0 1F9F3FFF#8080808080808080
(1690486564.084013) can0 1F9F3FFF#8080808080808080
(1690486564.084188) can0 1F9F3FFF#8080800000000000
(1690486564.084360) can0 1F9F3FFF#0000000080808080
(1690486564.100151) can0 1FBF3FFF#0100BFFDFFDF7FF7
(1690486564.100328) can0 1F9F3FFF#0000008080808080
(1690486564.100502) can0 1F9F3FFF#8080808000000040
(1690486564.100679) can0 1F9F3FFF#8080808080808080
(1690486564.100849) can0 1F9F3FFF#8080808080808080
(1690486564.101025) can0 1F9F3FFF#8080808080808080
(1690486564.101195) can0 1F9F3FFF#8080808080808080
(1690486564.101365) can0 1F9F3FFF#8080800000000000
(1690486564.101538) can0 1F9F3FFF#0000000080808080
(1690486564.117329) can0 1FBF3FFF#0100BFFDFFDF7FF7
(1690486564.117506) can0 1F9F3FFF#0000008080808080
(1690486564.117678) can0 1F9F3FFF#8080808000000040
(1690486564.117851) can0 1F9F3FFF#8080808080808080
(1690486564.118023) can0 1F9F3FFF#8080808080808080
(1690486564.118196) can0 1F9F3FFF#8080808080808080
(1690486564.118368) can0 1F9F3FFF#8080808080808080
(1690486564.118541) can0 1F9F3FFF#8080800000000000
(1690486564.118716) can0 1F9F3FFF#0000000080808080
(1690486564.134507) can0 1FBF3FFF#0100BFFDFFDF7FF7
(1690486564.134682) can0 1F9F3FFF#0000008080808080
(1690486564.134856) can0 1F9F3FFF#8080808000000040
(1690486564.135027) can0 1F9F3FFF#8080808080808080
(1690486564.135200) can0 1F9F3FFF#8080808080808080
(1690486564.135374) can0 1F9F3FFF#8080808080808080
(1690486564.135544) can0 1F9F3FFF#8080808080808080
(1690486564.135719) can0 1F9F3FFF#8080800000000000
(1690486564.135892) can0 1F9F3FFF#0000000080808080
(1690486564.151684) can0 1FBF3FFF#0100BFFDFFDF7FF7
(1690486564.151860) can0 1F9F3FFF#0000008080808080
(1690486564.152033) can0 1F9F3FFF#8080808000000040
(1690486564.152204) can0 1F9F3FFF#8080808080808080
(1690486564.152377) can0 1F9F3FFF#8080808080808080
(1690486564.152547) can0 1F9F3FFF#8080808080808080
(1690486564.152721) can0 1F9F3FFF#8080808080808080
(1690486564.152899) can0 1F9F3FFF#8080800000000000
(1690486564.153068) can0 1F9F3FFF#0000000080808080
(1690486564.168882) can0 1FBF3FFF#0100BFFDFFDF7FF7
(1690486564.169058) can0 1F9F3FFF#0000008080808080
(1690486564.169224) can0 1F9F3FFF#8080808000000040
(1690486564.169393) can0 1F9F3FFF#8080808080808080
(1690486564.169565) can0 1F9F3FFF#8080808080808080
(1690486564.169742) can0 1F9F3FFF#8080808080808080
(1690486564.169910) can0 1F9F3FFF#8080808080808080
(1690486564.170083) can0 1F9F3FFF#8080800000000000
(1690486564.170258) can0 1F9F3FFF#0000000080808080
(1690486564.186048) can0 1FBF3FFF#0100BFFDFFDF7FF7
(1690486564.186226) can0 1F9F3FFF#0000008080808080
(1690486564.186397) can0 1F9F3FFF#8080808000000040
(1690486564.186568) can0 1F9F3FFF#8080808080808080
(1690486564.186743) can0 1F9F3FFF#8080808080808080
(1690486564.186913) can0 1F9F3FFF#8080808080808080
(1690486564.187085) can0 1F9F3FFF#8080808080808080
(1690486564.187259) can0 1F9F3FFF#8080800000000000
(1690486564.187432) can0 1F9F3FFF#0000000080808080
(1690486564.203580) can0 1FBF1FFF#0100BFFDFFDF7FF7
(1690486564.203756) can0 1F9F1FFF#008080C0C0406020
(1690486564.203928) can0 1F9F1FFF#2020001010101010
(1690486564.204101) can0 1F9F1FFF#00008080C0404020
(1690486564.204273) can0 1F9F1FFF#2020200000101010
(1690486564.204447) can0 1F9F1FFF#0000808080404040
(1690486564.204620) can0 1F9F1FFF#2020202020000010
(1690486564.204793) can0 1F9F1FFF#0000008080C04040
(1690486564.204964) can0 1F9F1FFF#4000202020202020
(1690486564.220761) can0 1FBF1FFF#0100BFFDFFDF7FF7
(1690486564.220932) can0 1F9F1FFF#008080C0C0406020
(1690486564.221105) can0 1F9F1FFF#2020001010101010
(1690486564.221275) can0 1F9F1FFF#00008080C0404020
(1690486564.221449) can0 1F9F1FFF#2020200000101010
(1690486564.221622) can0 1F9F1FFF#0000808080404040
(1690486564.221793) can0 1F9F1FFF#2020202020000010
(1690486564.221967) can0 1F9F1FFF#0000008080C04040
(1690486564.222139) can0 1F9F1FFF#4000202020202020
(1690486564.237930) can0 1FBF1FFF#0100BFFDFFDF7FF7
(1690486564.238106) can0 1F9F1FFF#008080C0C0406020
(1690486564.238279) can0 1F9F1FFF#2020001010101010
(1690486564.238450) can0 1F9F1FFF#00008080C0404020
(1690486564.238625) can0 1F9F1FFF#2020200000101010
(1690486564.238795) can0 1F9F1FFF#0000808080404040
(1690486564.238968) can0 1F9F1FFF#2020202020000010
(1690486564.239141) can0 1F9F1FFF#0000008080C04040
(1690486564.239313) can0 1F9F1FFF#4000202020202020
(1690486564.255119) can0 1FBF1FFF#0100BFFDFFDF7FF7
(1690486564.255292) can0 1F9F1FFF#008080C0C0406020
(1690486564.255466) can0 1F9F1FFF#2020001010101010
(1690486564.255639) can0 1F9F1FFF#00008080C0404020
(1690486564.255811) can0 1F9F1FFF#2020200000101010
(1690486564.255991) can0 1F9F1FFF#0000808080404040
(1690486564.256158) can0 1F9F1FFF#2020202020000010
(1690486564.256331) can0 1F9F1FFF#0000008080C04040
(1690486564.256504) can0 1F9F1FFF#4000202020202020
(1690486564.272305) can0 1FBF1FFF#0100BFFDFFDF7FF7
(1690486564.272481) can0 1F9F1FFF#008080C0C0406020
(1690486564.272644) can0 1F9F1FFF#2020001010101010
(1690486564.272814) can0 1F9F1FFF#00008080C0404020
(1690486564.272987) can0 1F9F1FFF#2020200000101010
(1690486564.273158) can0 1F9F1FFF#0000808080404040
(1690486564.273332) can0 1F9F1FFF#2020202020000010
(1690486564.273507) can0 1F9F1FFF#0000008080C04040
(1690486564.273678) can0 1F9F1FFF#4000202020202020
(1690486564.289468) can0 1FBF1FFF#0100BFFDFFDF7FF7
(1690486564.289644) can0 1F9F1FFF#008080C0C0406020
(1690486564.289818) can0 1F9F1FFF#2020001010101010
(1690486564.289991) can0 1F9F1FFF#00008080C0404020
(1690486564.290162) can0 1F9F1FFF#2020200000101010
(1690486564.290333) can0 1F9F1FFF#0000808080404040
(1690486564.290508) can0 1F9F1FFF#2020202020000010
(1690486564.290687) can0 1F9F1FFF#0000008080C04040
(1690486564.290855) can0 1F9F1FFF#4000202020202020
(1690486564.306643) can0 1FBF1FFF#0100BFFDFFDF7FF7
(1690486564.306817) can0 1F9F1FFF#008080C0C0406020
(1690486564.306994) can0 1F9F1FFF#2020001010101010
(1690486564.307163) can0 1F9F1FFF#00008080C0404020
(1690486564.307337) can0 1F9F1FFF#2020200000101010
(1690486564.307510) can0 1F9F1FFF#0000808080404040
(1690486564.307683) can0 1F9F1FFF#2020202020000010
(1690486564.307856) can0 1F9F1FFF#0000008080C04040
(1690486564.308027) can0 1F9F1FFF#4000202020202020
(1690486564.323818) can0 1FBF1FFF#0100BFFDFFDF7FF7
(1690486564.323993) can0 1F9F1FFF#008080C0C0406020
(1690486564.324166) can0 1F9F1FFF#2020001010101010
(1690486564.324339) can0 1F9F1FFF#00008080C0404020
(1690486564.324512) can0 1F9F1FFF#2020200000101010
(1690486564.324683) can0 1F9F1FFF#0000808080404040
(1690486564.324857) can0 1F9F1FFF#2020202020000010
(1690486564.325030) can0 1F9F1FFF#0000008080C04040
(1690486564.325202) can0 1F9F1FFF#4000202020202020
(1690486564.340999) can0 1FBF1FFF#0100BFFDFFDF7FF7
(1690486564.341170) can0 1F9F1FFF#008080C0C0406020
(1690486564.341341) can0 1F9F1FFF#2020001010101010
(1690486564.341514) can0 1F9F1FFF#00008080C0404020
(1690486564.341687) can0 1F9F1FFF#2020200000101010
(1690486564.341859) can0 1F9F1FFF#0000808080404040
(1690486564.342031) can0 1F9F1FFF#2020202020000010
(1690486564.342205) can0 1F9F1FFF#0000008080C04040
(1690486564.342378) can0 1F9F1FFF#4000202020202020
(1690486564.358180) can0 1FBF1FFF#0100BFFDFFDF7FF7
(1690486564.358357) can0 1F9F1FFF#008080C0C0406020
(1690486564.358529) can0 1F9F1FFF#2020001010101010
(1690486564.358702) can0 1F9F1FFF#00008080C0404020
(1690486564.358875) can0 1F9F1FFF#2020200000101010
(1690486564.359045) can0 1F9F1FFF#0000808080404040
(1690486564.359218) can0 1F9F1FFF#2020202020000010
(1690486564.359392) can0 1F9F1FFF#0000008080C04040
(1690486564.359564) can0 1F9F1FFF#4000202020202020
(1690486564.417590) can0 1FBEFFFF#0100BFFDFFDF7FF7
(1690486564.417774) can0 1F9EFFFF#70F0F08000000000
(1690486564.417941) can0 1F9EFFFF#0000000000000000
(1690486564.418117) can0 1F9EFFFF#60F0F09000000000
(1690486564.418293) can0 1F9EFFFF#0000000000000000
(1690486564.418472) can0 1F9EFFFF#60F0F09000000000
(1690486564.418647) can0 1F9EFFFF#0000000000000000
(1690486564.418827) can0 1F9EFFFF#E0F0F01000000000
(1690486564.419004) can0 1F9EFFFF#0000000000000000
(1690486564.434797) can0 1FBEFFFF#0100BFFDFFDF7FF7
(1690486564.434969) can0 1F9EFFFF#70F0F08000000000
(1690486564.435147) can0 1F9EFFFF#0000000000000000
(1690486564.435324) can0 1F9EFFFF#60F0F09000000000
(1690486564.435501) can0 1F9EFFFF#0000000000000000
(1690486564.435677) can0 1F9EFFFF#60F0F09000000000
(1690486564.435854) can0 1F9EFFFF#0000000000000000
(1690486564.436030) can0 1F9EFFFF#E0F0F01000000000
(1690486564.436207) can0 1F9EFFFF#0000000000000000
(1690486564.452002) can0 1FBEFFFF#0100BFFDFFDF7FF7
(1690486564.452173) can0 1F9EFFFF#70F0F08000000000
(1690486564.452354) can0 1F9EFFFF#0000000000000000
(1690486564.452528) can0 1F9EFFFF#60F0F09000000000
(1690486564.452707) can0 1F9EFFFF#0000000000000000
(1690486564.452885) can0 1F9EFFFF#60F0F09000000000
(1690486564.453060) can0 1F9EFFFF#0000000000000000
(1690486564.453237) can0 1F9EFFFF#E0F0F01000000000
(1690486564.453413) can0 1F9EFFFF#0000000000000000
(1690486564.469219) can0 1FBEFFFF#0100BFFDFFDF7FF7
(1690486564.469395) can0 1F9EFFFF#70F0F08000000000
(1690486564.469574) can0 1F9EFFFF#0000000000000000
(1690486564.469750) can0 1F9EFFFF#60F0F09000000000
(1690486564.469926) can0 1F9EFFFF#0000000000000000
(1690486564.470105) can0 1F9EFFFF#60F0F09000000000
(1690486564.470279) can0 1F9EFFFF#0000000000000000
(1690486564.470457) can0 1F9EFFFF#E0F0F01000000000
(1690486564.470663) can0 1F9EFFFF#0000000000000000
(1690486564.486426) can0 1FBEFFFF#0100BFFDFFDF7FF7
(1690486564.486603) can0 1F9EFFFF#70F0F08000000000
(1690486564.486779) can0 1F9EFFFF#0000000000000000
(1690486564.486955) can0 1F9EFFFF#60F0F09000000000
(1690486564.487133) can0 1F9EFFFF#0000000000000000
(1690486564.487308) can0 1F9EFFFF#60F0F09000000000
(1690486564.487486) can0 1F9EFFFF#0000000000000000
(1690486564.487663) can0 1F9EFFFF#E0F0F01000000000
(1690486564.487839) can0 1F9EFFFF#0000000000000000
(1690486564.503648) can0 1FBEFFFF#0100BFFDFFDF7FF7
(1690486564.503826) can0 1F9EFFFF#70F0F08000000000
(1690486564.503990) can0 1F9EFFFF#0000000000000000
(1690486564.504163) can0 1F9EFFFF#60F0F09000000000
(1690486564.504340) can0 1F9EFFFF#0000000000000000
(1690486564.504517) can0 1F9EFFFF#60F0F09000000000
(1690486564.504694) can0 1F9EFFFF#0000000000000000
(1690486564.504874) can0 1F9EFFFF#E0F0F01000000000
(1690486564.505048) can0 1F9EFFFF#0000000000000000
(1690486564.520840) can0 1FBEFFFF#0100BFFDFFDF7FF7
(1690486564.521016) can0 1F9EFFFF#70F0F08000000000
(1690486564.521193) can0 1F9EFFFF#0000000000000000
(1690486564.521370) can0 1F9EFFFF#60F0F09000000000
(1690486564.521547) can0 1F9EFFFF#0000000000000000
(1690486564.521725) can0 1F9EFFFF#60F0F09000000000
(1690486564.521900) can0 1F9EFFFF#0000000000000000
(1690486564.522077) can0 1F9EFFFF#E0F0F01000000000
(1690486564.522254) can0 1F9EFFFF#0000000000000000
(1690486564.538046) can0 1FBEFFFF#0100BFFDFFDF7FF7
(1690486564.538224) can0 1F9EFFFF#70F0F08000000000
(1690486564.538400) can0 1F9EFFFF#0000000000000000
(1690486564.538576) can0 1F9EFFFF#60F0F09000000000
(1690486564.538754) can0 1F9EFFFF#0000000000000000
(1690486564.538929) can0 1F9EFFFF#60F0F09000000000
(1690486564.539108) can0 1F9EFFFF#0000000000000000
(1690486564.539283) can0 1F9EFFFF#E0F0F01000000000
(1690486564.539460) can0 1F9EFFFF#0000000000000000
(1690486564.555267) can0 1FBEFFFF#0100BFFDFFDF7FF7
(1690486564.555443) can0 1F9EFFFF#70F0F08000000000
(1690486564.555621) can0 1F9EFFFF#0000000000000000
(1690486564.555796) can0 1F9EFFFF#60F0F09000000000
(1690486564.555974) can0 1F9EFFFF#0000000000000000
(1690486564.556149) can0 1F9EFFFF#60F0F09000000000
(1690486564.556326) can0 1F9EFFFF#0000000000000000
(1690486564.556505) can0 1F9EFFFF#E0F0F01000000000
(1690486564.556680) can0 1F9EFFFF#0000000000000000
(1690486564.572510) can0 1FBEFFFF#0100BFFDFFDF7FF7
(1690486564.572658) can0 1F9EFFFF#70F0F08000000000
(1690486564.572825) can0 1F9EFFFF#0000000000000000
(1690486564.573008) can0 1F9EFFFF#60F0F09000000000
(1690486564.573181) can0 1F9EFFFF#0000000000000000
(1690486564.573359) can0 1F9EFFFF#60F0F09000000000
(1690486564.573535) can0 1F9EFFFF#0000000000000000
(1690486564.573711) can0 1F9EFFFF#E0F0F01000000000
(1690486564.573889) can0 1F9EFFFF#0000000000000000
(1690486564.589948) can0 1FBEDFFF#0100BFFDFFDF7FF7
(1690486564.590125) can0 1F9EDFFF#0000001010302020
(1690486564.590296) can0 1F9EDFFF#2000404040404040
(1690486564.590470) can0 1F9EDFFF#0000101010202020
(1690486564.590672) can0 1F9EDFFF#4040404040000080
(1690486564.590827) can0 1F9EDFFF#0000101030202040
(1690486564.590990) can0 1F9EDFFF#4040404000808080
(1690486564.591159) can0 1F9EDFFF#0010103030206040
(1690486564.591330) can0 1F9EDFFF#4040008080808080
(1690486564.607136) can0 1FBEDFFF#0100BFFDFFDF7FF7
(1690486564.607295) can0 1F9EDFFF#0000001010302020
(1690486564.607481) can0 1F9EDFFF#2000404040404040
(1690486564.607640) can0 1F9EDFFF#0000101010202020
(1690486564.607816) can0 1F9EDFFF#4040404040000080
(1690486564.607990) can0 1F9EDFFF#0000101030202040
(1690486564.608160) can0 1F9EDFFF#4040404000808080
(1690486564.608330) can0 1F9EDFFF#0010103030206040
(1690486564.608503) can0 1F9EDFFF#4040008080808080
(1690486564.624294) can0 1FBEDFFF#0100BFFDFFDF7FF7
(1690486564.624470) can0 1F9EDFFF#0000001010302020
(1690486564.624642) can0 1F9EDFFF#2000404040404040
(1690486564.624816) can0 1F9EDFFF#0000101010202020
(1690486564.624989) can0 1F9EDFFF#4040404040000080
(1690486564.625161) can0 1F9EDFFF#0000101030202040
(1690486564.625332) can0 1F9EDFFF#4040404000808080
(1690486564.625505) can0 1F9EDFFF#0010103030206040
(1690486564.625675) can0 1F9EDFFF#4040008080808080
(1690486564.641466) can0 1FBEDFFF#0100BFFDFFDF7FF7
(1690486564.641643) can0 1F9EDFFF#0000001010302020
(1690486564.641816) can0 1F9EDFFF#2000404040404040
(1690486564.641991) can0 1F9EDFFF#0000101010202020
(1690486564.642164) can0 1F9EDFFF#4040404040000080
(1690486564.642336) can0 1F9EDFFF#0000101030202040
(1690486564.642507) can0 1F9EDFFF#4040404000808080
(1690486564.642677) can0 1F9EDFFF#0010103030206040
(1690486564.642853) can0 1F9EDFFF#4040008080808080
(1690486564.658655) can0 1FBEDFFF#0100BFFDFFDF7FF7
(1690486564.658831) can0 1F9EDFFF#0000001010302020
(1690486564.659007) can0 1F9EDFFF#2000404040404040
(1690486564.659177) can0 1F9EDFFF#0000101010202020
(1690486564.659352) can0 1F9EDFFF#4040404040000080
(1690486564.659523) can0 1F9EDFFF#0000101030202040
(1690486564.659694) can0 1F9EDFFF#4040404000808080
(1690486564.659865) can0 1F9EDFFF#0010103030206040
(1690486564.660037) can0 1F9EDFFF#4040008080808080
(1690486564.675828) can0 1FBEDFFF#0100BFFDFFDF7FF7
(1690486564.676007) can0 1F9EDFFF#0000001010302020
(1690486564.676178) can0 1F9EDFFF#2000404040404040
(1690486564.676351) can0 1F9EDFFF#0000101010202020
(1690486564.676523) can0 1F9EDFFF#4040404040000080
(1690486564.676695) can0 1F9EDFFF#0000101030202040
(1690486564.676866) can0 1F9EDFFF#4040404000808080
(1690486564.677037) can0 1F9EDFFF#0010103030206040
(1690486564.677210) can0 1F9EDFFF#4040008080808080
(1690486564.693001) can0 1FBEDFFF#0100BFFDFFDF7FF7
(1690486564.693176) can0 1F9EDFFF#0000001010302020
(1690486564.693350) can0 1F9EDFFF#2000404040404040
(1690486564.693522) can0 1F9EDFFF#0000101010202020
(1690486564.693696) can0 1F9EDFFF#4040404040000080
(1690486564.693870) can0 1F9EDFFF#0000101030202040
(1690486564.694040) can0 1F9EDFFF#4040404000808080
(1690486564.694210) can0 1F9EDFFF#0010103030206040
(1690486564.694383) can0 1F9EDFFF#4040008080808080
(1690486564.710181) can0 1FBEDFFF#0100BFFDFFDF7FF7
(1690486564.710360) can0 1F9EDFFF#0000001010302020
(1690486564.710525) can0 1F9EDFFF#2000404040404040
(1690486564.710708) can0 1F9EDFFF#0000101010202020
(1690486564.710875) can0 1F9EDFFF#4040404040000080
(1690486564.711042) can0 1F9EDFFF#0000101030202040
(1690486564.711211) can0 1F9EDFFF#4040404000808080
(1690486564.711383) can0 1F9EDFFF#0010103030206040
(1690486564.711554) can0 1F9EDFFF#4040008080808080
(1690486564.727345) can0 1FBEDFFF#0100BFFDFFDF7FF7
(1690486564.727517) can0 1F9EDFFF#0000001010302020
(1690486564.727690) can0 1F9EDFFF#2000404040404040
(1690486564.727864) can0 1F9EDFFF#0000101010202020
(1690486564.728037) can0 1F9EDFFF#4040404040000080
(1690486564.728210) can0 1F9EDFFF#0000101030202040
(1690486564.728382) can0 1F9EDFFF#4040404000808080
(1690486564.728551) can0 1F9EDFFF#0010103030206040
(1690486564.728725) can0 1F9EDFFF#4040008080808080
(1690486564.744522) can0 1FBEDFFF#0100BFFDFFDF7FF7
(1690486564.744699) can0 1F9EDFFF#0000001010302020
(1690486564.744871) can0 1F9EDFFF#2000404040404040
(1690486564.745043) can0 1F9EDFFF#0000101010202020
(1690486564.745216) can0 1F9EDFFF#4040404040000080
(1690486564.745388) can0 1F9EDFFF#0000101030202040
(1690486564.745558) can0 1F9EDFFF#4040404000808080
(1690486564.745731) can0 1F9EDFFF#0010103030206040
(1690486564.745902) can0 1F9EDFFF#4040008080808080
(1690486564.762064) can0 1FBFDFFF#0200BFFDFFDF7FF7
(1690486564.762234) can0 1F9FDFFF#2863292032303032
(1690486564.762413) can0 1F9FDFFF#2041646F6C66204E
(1690486564.762564) can0 1F9FDFFF#697373656E20456C
(1690486564.762733) can0 1F9FDFFF#656B74726F626175
(1690486564.762899) can0 1F9FDFFF#20476D6248202B20
(1690486564.763065) can0 1F9FDFFF#436F2E204B47202D
(1690486564.763233) can0 1F9FDFFF#2032353833322054
(1690486564.763396) can0 1F9FDFFF#6F656E6E696E6720
(1690486564.763535) can0 1F7FDFFF#FFFF
